Title: * spicenetlist
Date: Sun Sep 06 19:12:11  2020
Plotname: Transient Analysis
Flags: real
No. Variables: 10
No. Points: 501
Variables:
	0	time	time
	1	v(fin)	voltage
	2	v(raw)	voltage
	3	v(out)	voltage
	4	v(sig)	voltage
	5	v(full)	voltage
	6	v(int)	voltage
	7	v(intraw)	voltage
	8	i(i(v_v1))	current
	9	i(i(v_v2))	current
Values:
 0	1.000085190920595e-001
	6.522155157692069e-001
	7.679326298312694e+000
	-1.864709706947449e-001
	5.342485087914030e-002
	7.237237021376643e+000
	5.256959783768869e+000
	3.819498028974067e+000
	6.172560963523368e-005
	-1.054991341907430e-003

 1	1.000485190920595e-001
	8.232362953349099e-001
	8.735067723302734e+000
	8.558822291266566e-001
	2.863144151514183e-001
	8.655315786694910e+000
	1.557086878632081e+000
	3.323067120345280e-002
	-3.710695331681085e-004
	-1.186089990773336e-003

 2	1.000885190920595e-001
	8.243185341045094e-001
	8.673063366547209e+000
	7.615296350868572e-001
	4.483736183009323e-001
	8.571699785080480e+000
	1.780964099938662e+000
	3.099216015074535e-002
	-4.338152887314647e-004
	-1.184427398841754e-003

 3	1.001285190920595e-001
	7.985947186321172e-001
	8.389864585056150e+000
	4.540198636216246e-001
	4.995111785936647e-001
	8.191026312044414e+000
	2.781324133031933e+000
	8.544441240798337e-001
	4.950840990584036e-005
	-1.154095137701471e-003

 4	1.001685190920595e-001
	7.474496602472882e-001
	7.743072182541306e+000
	-1.978950354565230e-001
	4.270763468155292e-001
	7.322117293033841e+000
	5.042444599217704e+000
	3.069754924609120e+000
	5.694045706069279e-005
	-1.076961378852621e-003

 5	1.002085190920595e-001
	5.936051654651140e-001
	7.661918797602526e+000
	-2.696965879276219e-001
	2.489885326126809e-001
	7.213194764257423e+000
	5.324341218550810e+000
	3.408062333944163e+000
	6.427614004267781e-005
	-1.067109550503240e-003

 6	1.002485190920595e-001
	3.814700698294407e-001
	7.664032299799826e+000
	-2.570481901684012e-001
	9.304281950087980e-003
	7.216139251164748e+000
	5.315931149845789e+000
	3.467056393661606e+000
	7.346963509192008e-005
	-1.067579708818349e-003

 7	1.002885190920595e-001
	1.706986038733910e-001
	7.666234641996836e+000
	-2.448087099686482e-001
	-2.326817237608332e-001
	7.219198102229427e+000
	5.307189189302726e+000
	3.525029105379217e+000
	8.260306368243736e-005
	-1.068070756626618e-003

 8	1.003285190920595e-001
	2.061688177515599e-002
	7.668437573648829e+000
	-2.330486314875317e-001
	-4.171053796617369e-001
	7.222252945216894e+000
	5.298539915147092e+000
	3.582395437251114e+000
	8.910660533090602e-005
	-1.067963817019412e-003

 9	1.003685190920595e-001
	-2.458607464434511e-002
	7.670627914689694e+000
	-2.217620762910926e-001
	-4.983427371986704e-001
	7.225286265490013e+000
	5.289981267636859e+000
	3.639160689115906e+000
	9.106540025625556e-005
	-1.066821438506923e-003

 10	1.004085190920595e-001
	5.321181480631306e-002
	7.672805402671531e+000
	-2.109307321406240e-001
	-4.562967594553905e-001
	7.228297896240633e+000
	5.281512297366307e+000
	3.695331159260456e+000
	8.769415828063510e-005
	-1.064462391853267e-003

 11	1.004485190920595e-001
	2.415846136653714e-001
	7.674969774771098e+000
	-2.005370052923983e-001
	-3.013690595875717e-001
	7.231287662975205e+000
	5.273132064458019e+000
	3.750913079560663e+000
	7.953133667556252e-005
	-1.061010929173826e-003

 12	1.004885190920595e-001
	5.006344280009313e-001
	7.677121257512788e+000
	-1.905635122008462e-001
	-7.188668069496708e-002
	7.234256041561707e+000
	5.264838039574340e+000
	3.805910952988240e+000
	6.830584053921403e-005
	-1.056866070379864e-003

 13	1.005285190920595e-001
	7.724788402749617e-001
	7.918700140310140e+000
	5.375160866717721e-002
	1.753795025893044e-001
	7.558804369833524e+000
	4.421981188986210e+000
	2.992132392770128e+000
	5.458530440958067e-005
	-1.082566973420397e-003

 14	1.005685190920595e-001
	8.322998899868133e-001
	8.730034137789289e+000
	8.470691901695897e-001
	3.792591400185177e-001
	8.648516208954082e+000
	1.575428839461823e+000
	2.635926999529729e-002
	-7.748782429963901e-004
	-1.186051244860693e-003

 15	1.006085190920595e-001
	7.973531605667380e-001
	8.359156899358478e+000
	4.502456548386125e-001
	4.893151331425225e-001
	8.150044989026355e+000
	2.886288959325628e+000
	1.156269359268567e+000
	4.986463027599041e-005
	-1.144700746637170e-003

 16	1.006485190920595e-001
	8.049962515733369e-001
	8.607039926141965e+000
	6.756115377699263e-001
	4.783210996201601e-001
	8.482809350233652e+000
	2.016708890315494e+000
	1.234758871211101e-001
	4.332099236881593e-005
	-1.180251418916878e-003

 17	1.006885190920595e-001
	6.962864395393892e-001
	7.669906487608266e+000
	-2.696413054109543e-001
	3.489968164636110e-001
	7.223845570423578e+000
	5.297470804540242e+000
	3.337945570710427e+000
	5.975136324419062e-005
	-1.068231966229329e-003

 18	1.007285190920595e-001
	5.061883096614490e-001
	7.662647064869470e+000
	-2.661842176877762e-001
	1.333353835421500e-001
	7.214200910982413e+000
	5.321697880472331e+000
	3.428728407701802e+000
	6.806515197341342e-005
	-1.067379052454153e-003

 19	1.007685190920595e-001
	2.866700415087264e-001
	7.664810722152996e+000
	-2.536243882847984e-001
	-1.153114418953024e-001
	7.217211385654480e+000
	5.312905956950226e+000
	3.487112728178461e+000
	7.757763445023595e-005
	-1.067962986560757e-003

 20	1.008085190920595e-001
	9.920547301837610e-002
	7.667020167269778e+000
	-2.415122111787449e-001
	-3.354317571788337e-001
	7.220278434247916e+000
	5.304196773083477e+000
	3.544876335168359e+000
	8.570109951566945e-005
	-1.068221656593714e-003

 21	1.008485190920595e-001
	-2.769285834884539e-003
	7.669217656355796e+000
	-2.298867430089731e-001
	-4.725707371339787e-001
	7.223324674377636e+000
	5.295578850349407e+000
	3.602034706313097e+000
	9.012000599375271e-005
	-1.067638628240776e-003

 22	1.008885190920595e-001
	1.291152304923621e-002
	7.671402709883491e+000
	-2.187293672755866e-001
	-4.928020303087361e-001
	7.226349652838565e+000
	5.287051228986450e+000
	3.658594179708392e+000
	8.944050430063867e-005
	-1.065892307676112e-003

 23	1.009285190920595e-001
	1.491880071095634e-001
	7.673574843298729e+000
	-2.080222024655249e-001
	-3.911206850634909e-001
	7.229352902373648e+000
	5.278612959574016e+000
	3.714561027336414e+000
	8.353518977477156e-005
	-1.062953360225368e-003

 24	1.009685190920595e-001
	3.790493288052304e-001
	7.675733812730175e+000
	-1.977478323380071e-001
	-1.926813077401735e-001
	7.232334271983518e+000
	5.270263101488915e+000
	3.769941454154641e+000
	7.357453208697699e-005
	-1.059091881587707e-003

 25	1.010085190920595e-001
	6.522155157687430e-001
	7.679326298312611e+000
	-1.864709706949128e-001
	5.342485087889279e-002
	7.237237021376529e+000
	5.256959783769254e+000
	3.819498028972136e+000
	6.172560963525449e-005
	-1.054991341907483e-003

 26	1.010485190920595e-001
	8.232362953348542e-001
	8.735067723302105e+000
	8.558822291259602e-001
	2.863144151512142e-001
	8.655315786694064e+000
	1.557086878634336e+000
	3.323067120349814e-002
	-3.710695331663053e-004
	-1.186089990773320e-003

 27	1.010885190920595e-001
	8.243185341045454e-001
	8.673063366546652e+000
	7.615296350862595e-001
	4.483736183007718e-001
	8.571699785079730e+000
	1.780964099940660e+000
	3.099216015070451e-002
	-4.338152887330259e-004
	-1.184427398841741e-003

 28	1.011285190920595e-001
	7.985947186320136e-001
	8.389864585052870e+000
	4.540198636183819e-001
	4.995111785936707e-001
	8.191026312040009e+000
	2.781324133043343e+000
	8.544441240897431e-001
	4.950840990587159e-005
	-1.154095137701125e-003

 29	1.011685190920595e-001
	7.474496602473141e-001
	7.743072182541432e+000
	-1.978950354562974e-001
	4.270763468156587e-001
	7.322117293034012e+000
	5.042444599217522e+000
	3.069754924607890e+000
	5.694045706069019e-005
	-1.076961378852635e-003

 30	1.012085190920595e-001
	5.936051654652249e-001
	7.661918797602398e+000
	-2.696965879276538e-001
	2.489885326128968e-001
	7.213194764257253e+000
	5.324341218550936e+000
	3.408062333943241e+000
	6.427614004267390e-005
	-1.067109550503296e-003

 31	1.012485190920595e-001
	3.814700698295825e-001
	7.664032299799866e+000
	-2.570481901682680e-001
	9.304281950336871e-003
	7.216139251164805e+000
	5.315931149845921e+000
	3.467056393660702e+000
	7.346963509191379e-005
	-1.067579708818348e-003

 32	1.012885190920595e-001
	1.706986038735019e-001
	7.666234641996878e+000
	-2.448087099685230e-001
	-2.326817237606129e-001
	7.219198102229484e+000
	5.307189189302840e+000
	3.525029105378305e+000
	8.260306368243270e-005
	-1.068070756626619e-003

 33	1.013285190920595e-001
	2.061688177524491e-002
	7.668437573648785e+000
	-2.330486314874944e-001
	-4.171053796615369e-001
	7.222252945216837e+000
	5.298539915147217e+000
	3.582395437250225e+000
	8.910660533090217e-005
	-1.067963817019440e-003

 34	1.013685190920595e-001
	-2.458607464443609e-002
	7.670627914689736e+000
	-2.217620762909718e-001
	-4.983427371986502e-001
	7.225286265490070e+000
	5.289981267636982e+000
	3.639160689115026e+000
	9.106540025625949e-005
	-1.066821438506924e-003

 35	1.014085190920595e-001
	5.321181480610255e-002
	7.672805402671488e+000
	-2.109307321405884e-001
	-4.562967594554923e-001
	7.228297896240576e+000
	5.281512297366437e+000
	3.695331159259591e+000
	8.769415828064421e-005
	-1.064462391853297e-003

 36	1.014485190920595e-001
	2.415846136650685e-001
	7.674969774770970e+000
	-2.005370052924471e-001
	-3.013690595877703e-001
	7.231287662975035e+000
	5.273132064458152e+000
	3.750913079559811e+000
	7.953133667557553e-005
	-1.061010929173884e-003

 37	1.014885190920595e-001
	5.006344280006977e-001
	7.677121257512788e+000
	-1.905635122007663e-001
	-7.188668069510092e-002
	7.234256041561707e+000
	5.264838039574454e+000
	3.805910952987379e+000
	6.830584053922400e-005
	-1.056866070379880e-003

 38	1.015285190920595e-001
	7.724788402746387e-001
	7.918700140306797e+000
	5.375160866397799e-002
	1.753795025890713e-001
	7.558804369829034e+000
	4.421981188997808e+000
	2.992132392781222e+000
	5.458530440961970e-005
	-1.082566973420019e-003

 39	1.015685190920595e-001
	8.322998899867923e-001
	8.730034137789270e+000
	8.470691901697744e-001
	3.792591400183555e-001
	8.648516208954057e+000
	1.575428839461872e+000
	2.635926999530841e-002
	-7.748782429952720e-004
	-1.186051244860694e-003

 40	1.016085190920595e-001
	7.973531605670349e-001
	8.359156899367120e+000
	4.502456548472829e-001
	4.893151331424713e-001
	8.150044989037966e+000
	2.886288959295345e+000
	1.156269359237030e+000
	4.986463027590628e-005
	-1.144700746638269e-003

 41	1.016485190920595e-001
	8.049962515734696e-001
	8.607039926143591e+000
	6.756115377713803e-001
	4.783210996202658e-001
	8.482809350235833e+000
	2.016708890309780e+000
	1.234758871126964e-001
	4.332099236729458e-005
	-1.180251418917161e-003

 42	1.016885190920595e-001
	6.962864395392910e-001
	7.669906487608268e+000
	-2.696413054111462e-001
	3.489968164637893e-001
	7.223845570423578e+000
	5.297470804540744e+000
	3.337945570708020e+000
	5.975136324419582e-005
	-1.068231966229352e-003

 43	1.017285190920595e-001
	5.061883096614137e-001
	7.662647064869343e+000
	-2.661842176880871e-001
	1.333353835423899e-001
	7.214200910982243e+000
	5.321697880472691e+000
	3.428728407699287e+000
	6.806515197341472e-005
	-1.067379052454237e-003

 44	1.017685190920595e-001
	2.866700415086940e-001
	7.664810722152955e+000
	-2.536243882850151e-001
	-1.153114418950601e-001
	7.217211385654423e+000
	5.312905956950599e+000
	3.487112728175990e+000
	7.757763445023725e-005
	-1.067962986560808e-003

 45	1.018085190920595e-001
	9.920547301828710e-002
	7.667020167269653e+000
	-2.415122111790380e-001
	-3.354317571786492e-001
	7.220278434247746e+000
	5.304196773083860e+000
	3.544876335165928e+000
	8.570109951567336e-005
	-1.068221656593792e-003

 46	1.018485190920595e-001
	-2.769285835111125e-003
	7.669217656355713e+000
	-2.298867430092146e-001
	-4.725707371339345e-001
	7.223324674377523e+000
	5.295578850349747e+000
	3.602034706310652e+000
	9.012000599376253e-005
	-1.067638628240847e-003

 47	1.018885190920595e-001
	1.291152304890910e-002
	7.671402709883365e+000
	-2.187293672758610e-001
	-4.928020303087974e-001
	7.226349652838394e+000
	5.287051228986820e+000
	3.658594179706007e+000
	8.944050430065284e-005
	-1.065892307676192e-003

 48	1.019285190920595e-001
	1.491880071091490e-001
	7.673574843298646e+000
	-2.080222024657488e-001
	-3.911206850636460e-001
	7.229352902373535e+000
	5.278612959574364e+000
	3.714561027334038e+000
	8.353518977478945e-005
	-1.062953360225438e-003

 49	1.019685190920595e-001
	3.790493288047490e-001
	7.675733812730133e+000
	-1.977478323381838e-001
	-1.926813077404032e-001
	7.232334271983461e+000
	5.270263101489268e+000
	3.769941454152299e+000
	7.357453208699759e-005
	-1.059091881587761e-003

 50	1.020085190920595e-001
	6.522155157682520e-001
	7.679326298312484e+000
	-1.864709706951668e-001
	5.342485087864528e-002
	7.237237021376359e+000
	5.256959783769723e+000
	3.819498028969943e+000
	6.172560963527574e-005
	-1.054991341907549e-003

 51	1.020485190920595e-001
	8.232362953347943e-001
	8.735067723301381e+000
	8.558822291251307e-001
	2.863144151510101e-001
	8.655315786693091e+000
	1.557086878636925e+000
	3.323067120354623e-002
	-3.710695331643893e-004
	-1.186089990773301e-003

 52	1.020885190920595e-001
	8.243185341045884e-001
	8.673063366546010e+000
	7.615296350855472e-001
	4.483736183006617e-001
	8.571699785078867e+000
	1.780964099942956e+000
	3.099216015065573e-002
	-4.338152887348977e-004
	-1.184427398841726e-003

 53	1.021285190920595e-001
	7.985947186318199e-001
	8.389864585046871e+000
	4.540198636124480e-001
	4.995111785936867e-001
	8.191026312031951e+000
	2.781324133064465e+000
	8.544441241094611e-001
	4.950840990592884e-005
	-1.154095137700416e-003

 54	1.021685190920595e-001
	7.474496602472462e-001
	7.743072182541134e+000
	-1.978950354564111e-001
	4.270763468157881e-001
	7.322117293033614e+000
	5.042444599218426e+000
	3.069754924608274e+000
	5.694045706069626e-005
	-1.076961378852632e-003

 55	1.022085190920595e-001
	5.936051654652448e-001
	7.661918797602354e+000
	-2.696965879275153e-001
	2.489885326131127e-001
	7.213194764257196e+000
	5.324341218550995e+000
	3.408062333942818e+000
	6.427614004267347e-005
	-1.067109550503318e-003

 56	1.022485190920595e-001
	3.814700698296348e-001
	7.664032299799780e+000
	-2.570481901681774e-001
	9.304281950585762e-003
	7.216139251164691e+000
	5.315931149846001e+000
	3.467056393660304e+000
	7.346963509191162e-005
	-1.067579708818380e-003

 57	1.022885190920595e-001
	1.706986038735251e-001
	7.666234641996793e+000
	-2.448087099684333e-001
	-2.326817237603925e-001
	7.219198102229370e+000
	5.307189189302926e+000
	3.525029105377919e+000
	8.260306368243139e-005
	-1.068070756626650e-003

 58	1.023285190920595e-001
	2.061688177518514e-002
	7.668437573648742e+000
	-2.330486314873665e-001
	-4.171053796613996e-001
	7.222252945216781e+000
	5.298539915147293e+000
	3.582395437249833e+000
	8.910660533090476e-005
	-1.067963817019459e-003

 59	1.023685190920595e-001
	-2.458607464461091e-002
	7.670627914689607e+000
	-2.217620762909327e-001
	-4.983427371986299e-001
	7.225286265489899e+000
	5.289981267637062e+000
	3.639160689114643e+000
	9.106540025626708e-005
	-1.066821438506972e-003

 60	1.024085190920595e-001
	5.321181480580958e-002
	7.672805402671402e+000
	-2.109307321405067e-001
	-4.562967594555941e-001
	7.228297896240463e+000
	5.281512297366470e+000
	3.695331159259168e+000
	8.769415828065690e-005
	-1.064462391853338e-003

 61	1.024485190920595e-001
	2.415846136645945e-001
	7.674969774771011e+000
	-2.005370052922428e-001
	-3.013690595880597e-001
	7.231287662975092e+000
	5.273132064458215e+000
	3.750913079559424e+000
	7.953133667559613e-005
	-1.061010929173881e-003

 62	1.024885190920594e-001
	5.006344280002744e-001
	7.677121257512743e+000
	-1.905635122006553e-001
	-7.188668069534726e-002
	7.234256041561650e+000
	5.264838039574528e+000
	3.805910952987007e+000
	6.830584053924222e-005
	-1.056866070379903e-003

 63	1.025285190920594e-001
	7.724788402742423e-001
	7.918700140302818e+000
	5.375160866022455e-002
	1.753795025888381e-001
	7.558804369823690e+000
	4.421981189011900e+000
	2.992132392795437e+000
	5.458530440967044e-005
	-1.082566973419510e-003

 64	1.025685190920594e-001
	8.322998899867664e-001
	8.730034137789446e+000
	8.470691901702425e-001
	3.792591400181933e-001
	8.648516208954295e+000
	1.575428839461224e+000
	2.635926999532440e-002
	-7.748782429938253e-004
	-1.186051244860701e-003

 65	1.026085190920594e-001
	7.973531605673895e-001
	8.359156899377446e+000
	4.502456548576834e-001
	4.893151331424201e-001
	8.150044989051835e+000
	2.886288959259088e+000
	1.156269359199955e+000
	4.986463027580740e-005
	-1.144700746639574e-003

 66	1.026485190920594e-001
	8.049962515736097e-001
	8.607039926145369e+000
	6.756115377729897e-001
	4.783210996203383e-001
	8.482809350238220e+000
	2.016708890303532e+000
	1.234758871039214e-001
	4.332099236570297e-005
	-1.180251418917457e-003

 67	1.026885190920594e-001
	6.962864395392999e-001
	7.669906487608142e+000
	-2.696413054114704e-001
	3.489968164640490e-001
	7.223845570423407e+000
	5.297470804541107e+000
	3.337945570705620e+000
	5.975136324419495e-005
	-1.068231966229431e-003

 68	1.027285190920594e-001
	5.061883096614027e-001
	7.662647064869303e+000
	-2.661842176883145e-001
	1.333353835426299e-001
	7.214200910982186e+000
	5.321697880473069e+000
	3.428728407696933e+000
	6.806515197341516e-005
	-1.067379052454283e-003

 69	1.027685190920594e-001
	2.866700415086854e-001
	7.664810722152873e+000
	-2.536243882852727e-001
	-1.153114418948179e-001
	7.217211385654309e+000
	5.312905956950973e+000
	3.487112728173659e+000
	7.757763445023790e-005
	-1.067962986560869e-003

 70	1.028085190920594e-001
	9.920547301822152e-002
	7.667020167269570e+000
	-2.415122111792858e-001
	-3.354317571784645e-001
	7.220278434247632e+000
	5.304196773084217e+000
	3.544876335163609e+000
	8.570109951567618e-005
	-1.068221656593855e-003

 71	1.028485190920594e-001
	-2.769285835278034e-003
	7.669217656355587e+000
	-2.298867430094944e-001
	-4.725707371338532e-001
	7.223324674377352e+000
	5.295578850350105e+000
	3.602034706308362e+000
	9.012000599376976e-005
	-1.067638628240924e-003

 72	1.028885190920594e-001
	1.291152304862258e-002
	7.671402709883239e+000
	-2.187293672761292e-001
	-4.928020303088395e-001
	7.226349652838223e+000
	5.287051228987147e+000
	3.658594179703714e+000
	8.944050430066527e-005
	-1.065892307676274e-003

 73	1.029285190920594e-001
	1.491880071088256e-001
	7.673574843298562e+000
	-2.080222024659646e-001
	-3.911206850637302e-001
	7.229352902373421e+000
	5.278612959574707e+000
	3.714561027331787e+000
	8.353518977480354e-005
	-1.062953360225504e-003

 74	1.029685190920594e-001
	3.790493288042869e-001
	7.675733812730051e+000
	-1.977478323383881e-001
	-1.926813077406329e-001
	7.232334271983348e+000
	5.270263101489604e+000
	3.769941454150070e+000
	7.357453208701775e-005
	-1.059091881587827e-003

 75	1.030085190920594e-001
	6.522155157676683e-001
	7.679326298312272e+000
	-1.864709706954884e-001
	5.342485087828473e-002
	7.237237021376075e+000
	5.256959783770181e+000
	3.819498028967868e+000
	6.172560963530090e-005
	-1.054991341907643e-003

 76	1.030485190920594e-001
	8.232362953347372e-001
	8.735067723300697e+000
